
T1048 000:479 SEGGER J-Link V4.28c Log File (0001ms, 0478ms total)
T1048 000:479 DLL Compiled: Jul  1 2011 14:23:12 (0001ms, 0478ms total)
T1048 000:479 Logging started @ 2014-09-30 17:55 (0001ms, 0478ms total)
T1048 000:480 JLINK_SetWarnOutHandler(...) (0000ms, 0479ms total)
T1048 000:480 JLINK_OpenEx(...)
Firmware: J-Link ARM V8 compiled Jul 17 2014 12:31:18
Hardware: V8.00
S/N: 12345678
Feature(s): RDI,FlashDL,FlashBP,JFlash,GDBFull  returns O.K. (0254ms, 0479ms total)
T1048 000:734 JLINK_SetErrorOutHandler(...) (0000ms, 0733ms total)
T1048 000:734 JLINK_ExecCommand("ProjectFile = "C:\Users\zhchma\Documents\GitHub\Haier\Example\FreeRTOS\Project\keil\JLinkSettings.ini"", ...)  returns 0x00 (0001ms, 0733ms total)
T1048 000:735 JLINK_ExecCommand("Device = STM32F429IG", ...)  returns 0x00 (0000ms, 0734ms total)
T1048 000:737 JLINK_ExecCommand("DisableConnectionTimeout", ...)  returns 0x00 (0000ms, 0734ms total)
T1048 000:738 JLINK_GetHardwareVersion()  returns 0x13880 (0000ms, 0734ms total)
T1048 000:738 JLINK_GetDLLVersion()  returns 42803 (0000ms, 0734ms total)
T1048 000:738 JLINK_GetFirmwareString(...) (0000ms, 0734ms total)
T1048 000:740 JLINK_GetDLLVersion()  returns 42803 (0000ms, 0734ms total)
T1048 000:740 JLINK_GetCompileDateTime() (0000ms, 0734ms total)
T1048 000:741 JLINK_GetFirmwareString(...) (0000ms, 0734ms total)
T1048 000:741 JLINK_GetHardwareVersion()  returns 0x13880 (0001ms, 0734ms total)
T1048 000:743 JLINK_TIF_Select(JLINKARM_TIF_SWD)  returns 0x00 (0001ms, 0735ms total)
T1048 000:744 JLINK_SetSpeed(2000) (0001ms, 0736ms total)
T1048 000:745 JLINK_GetId() >0x108 TIF>Found SWD-DP with ID 0x2BA01477 >0x33 TIF> >0x33 TIF> >0x35 TIF> >0x33 TIF> >0x35 TIF> >0x33 TIF> >0x33 TIF> >0x35 TIF> >0x33 TIF> >0x33 TIF> >0x35 TIF> >0x33 TIF> >0x33 TIF> >0x35 TIF> >0x33 TIF> >0x33 TIF> >0x35 TIF> >0x35 TIF> >0x35 TIF> >0x35 TIF> >0x33 TIF> >0x33 TIF> >0x33 TIF> >0x35 TIF> >0x35 TIF> >0x35 TIF> >0x35 TIF> >0x33 TIF> >0x33 TIF> >0x35 TIF> >0x35 TIF> >0x35 TIF> >0x33 TIF> >0x33 TIF>TPIU fitted. >0x35 TIF> >0x35 TIF> >0x35 TIF> >0x33 TIF>
 >0x33 TIF>ETM fitted. >0x35 TIF> >0x35 TIF> >0x35 TIF> >0x33 TIF> >0x33 TIF> >0x35 TIF> >0x35 TIF> >0x35 TIF> >0x33 TIF> >0x33 TIF>  FPUnit: 6 code (BP) slots and 2 literal slots >0x35 TIF> >0x35 TIF> >0x35 TIF> >0x33 TIF> >0x33 TIF> >0x35 TIF> >0x35 TIF> >0x35 TIF> >0x33 TIF> >0x33 TIF> >0x35 TIF> >0x35 TIF> >0x35 TIF> >0x33 TIF> >0x33 TIF>Found Cortex-M4 r0p1, Little endian. >0x33 TIF>  returns 0x2BA01477 (0063ms, 0737ms total)
T1048 000:808 JLINK_GetDeviceFamily()  returns 14 (0000ms, 0800ms total)
T1048 000:809 JLINK_ReadMem (0xE00FFFF0, 0x0010 Bytes, ...) -- CPU is running -- CPU_ReadMem(16 bytes @ 0xE00FFFF0) -- Data:  0D 00 00 00 10 00 00 00 05 00 00 00 B1 00 00 00  returns 0x00 (0001ms, 0800ms total)
T1048 000:810 JLINK_ReadMem (0xE00FFFD0, 0x0020 Bytes, ...) -- CPU is running -- CPU_ReadMem(32 bytes @ 0xE00FFFD0) -- Data:  00 00 00 00 00 00 00 00 00 00 00 00 00 00 00 00 ...  returns 0x00 (0002ms, 0801ms total)
T1048 000:812 JLINK_ReadMem (0xE00FF000, 0x0018 Bytes, ...) -- CPU is running -- CPU_ReadMem(24 bytes @ 0xE00FF000) -- Data:  03 F0 F0 FF 03 20 F0 FF 03 30 F0 FF 03 10 F0 FF ...  returns 0x00 (0002ms, 0803ms total)
T1048 000:814 JLINK_ReadMemU32(0xE000ED00, 0x0001 Items, ...) -- CPU is running -- CPU_ReadMem(4 bytes @ 0xE000ED00) -- Data:  41 C2 0F 41  returns 0x01 (0001ms, 0805ms total)
T1048 000:815 JLINK_ReadMemU32(0xE000EF40, 0x0001 Items, ...) -- CPU is running -- CPU_ReadMem(4 bytes @ 0xE000EF40) -- Data:  21 00 11 10  returns 0x01 (0001ms, 0806ms total)
T1048 000:816 JLINK_ReadMemU32(0xE000EF44, 0x0001 Items, ...) -- CPU is running -- CPU_ReadMem(4 bytes @ 0xE000EF44) -- Data:  11 00 00 11  returns 0x01 (0001ms, 0807ms total)
T1048 000:817 JLINK_SetResetType(JLINKARM_RESET_TYPE_NORMAL)  returns JLINKARM_RESET_TYPE_NORMAL (0000ms, 0808ms total)
T1048 000:817 JLINK_Reset() >0x108 TIF>Found SWD-DP with ID 0x2BA01477 >0x33 TIF> >0x33 TIF> >0x35 TIF> >0x33 TIF> >0x35 TIF> >0x33 TIF> >0x33 TIF> >0x35 TIF> >0x33 TIF> >0x33 TIF> >0x35 TIF> >0x33 TIF> >0x33 TIF> >0x35 TIF> >0x33 TIF> >0x33 TIF> >0x35 TIF> >0x35 TIF> >0x35 TIF> >0x35 TIF> >0x33 TIF> >0x33 TIF> >0x33 TIF> >0x35 TIF> >0x35 TIF> >0x35 TIF> >0x35 TIF> >0x33 TIF> >0x33 TIF> >0x35 TIF> >0x35 TIF> >0x35 TIF> >0x33 TIF> >0x33 TIF>TPIU fitted. >0x35 TIF> >0x35 TIF> >0x35 TIF> >0x33 TIF>
 >0x33 TIF>ETM fitted. >0x35 TIF> >0x35 TIF> >0x35 TIF> >0x33 TIF> >0x33 TIF> >0x35 TIF> >0x35 TIF> >0x35 TIF> >0x33 TIF> >0x33 TIF>  FPUnit: 6 code (BP) slots and 2 literal slots >0x35 TIF> >0x35 TIF> >0x35 TIF> >0x33 TIF> >0x33 TIF> >0x35 TIF> >0x35 TIF> >0x35 TIF> >0x33 TIF> >0x33 TIF> >0x35 TIF> >0x35 TIF> >0x35 TIF> >0x33 TIF> >0x33 TIF>Found Cortex-M4 r0p1, Little endian. -- CPU is running -- CPU_WriteMem(4 bytes @ 0xE000EDF0) -- CPU is running -- CPU_WriteMem(4 bytes @ 0xE000EDFC) >0x35 TIF>
 -- CPU is running -- CPU_WriteMem(4 bytes @ 0xE000ED0C) -- CPU is running -- CPU_ReadMem(4 bytes @ 0xE000EDF0) -- CPU is running -- CPU_ReadMem(4 bytes @ 0xE000EDF0) -- CPU is running -- CPU_WriteMem(4 bytes @ 0xE000EDF0) -- CPU is running -- CPU_WriteMem(4 bytes @ 0xE000EDFC) -- CPU is running -- CPU_ReadMem(4 bytes @ 0xE000EDF0) (0085ms, 0808ms total)
T1048 000:902 JLINK_ReadReg(R15)  returns 0x08000268 (0000ms, 0893ms total)
T1048 000:902 JLINK_ReadReg(XPSR)  returns 0x01000000 (0000ms, 0893ms total)
T1048 000:902 JLINK_Halt()  returns 0x00 (0000ms, 0893ms total)
T1048 000:902 JLINK_IsHalted()  returns TRUE (0000ms, 0893ms total)
T1048 000:902 JLINK_ReadMemU32(0xE000EDF0, 0x0001 Items, ...) -- CPU_ReadMem(4 bytes @ 0xE000EDF0) -- Data:  03 00 03 00  returns 0x01 (0001ms, 0893ms total)
T1048 000:903 JLINK_WriteU32(0xE000EDF0, 0xA05F0003) -- CPU_WriteMem(4 bytes @ 0xE000EDF0)  returns 0x00 (0001ms, 0894ms total)
T1048 000:904 JLINK_WriteU32(0xE000EDFC, 0x01000000) -- CPU_WriteMem(4 bytes @ 0xE000EDFC)  returns 0x00 (0001ms, 0895ms total)
T1048 000:906 JLINK_GetHWStatus(...)  returns 0x00 (0001ms, 0896ms total)
T1048 000:907 JLINK_GetNumBPUnits(Type = 0xFFFFFF00)  returns 0x06 (0000ms, 0897ms total)
T1048 000:907 JLINK_GetNumBPUnits(Type = 0xF0)  returns 0x2000 (0000ms, 0897ms total)
T1048 000:907 JLINK_GetNumWPUnits()  returns 0x04 (0000ms, 0897ms total)
T1048 000:907 JLINK_GetSpeed()  returns 0x7D0 (0000ms, 0897ms total)
T1048 000:908 JLINK_ReadMemU32(0xE000E004, 0x0001 Items, ...) -- CPU_ReadMem(4 bytes @ 0xE000E004) -- Data:  02 00 00 00  returns 0x01 (0001ms, 0897ms total)
T1048 000:909 JLINK_ReadMemU32(0xE000E004, 0x0001 Items, ...) -- CPU_ReadMem(4 bytes @ 0xE000E004) -- Data:  02 00 00 00  returns 0x01 (0001ms, 0898ms total)
T1048 000:910 JLINK_WriteMem(0xE0001000, 0x001C Bytes, ...) -- Data:  01 00 00 00 00 00 00 00 00 00 00 00 00 00 00 00 ... -- CPU_WriteMem(28 bytes @ 0xE0001000)  returns 0x1C (0002ms, 0899ms total)
T1048 000:912 JLINK_ReadMem (0xE0001000, 0x001C Bytes, ...) -- CPU_ReadMem(28 bytes @ 0xE0001000) -- Data:  01 00 00 40 00 00 00 00 00 00 00 00 00 00 00 00 ...  returns 0x00 (0001ms, 0901ms total)
T1048 000:913 JLINK_ReadReg(R15)  returns 0x08000268 (0000ms, 0902ms total)
T1048 000:913 JLINK_ReadReg(XPSR)  returns 0x01000000 (0000ms, 0902ms total)
T1048 001:021 JLINK_ReadMem (0x08000000, 0x1000 Bytes, ...) -- CPU_ReadMem(4096 bytes @ 0x08000000) -- Data:  00 8B 00 20 69 02 00 08 C1 53 00 08 C3 53 00 08 ...  returns 0x00 (0046ms, 0902ms total)
T1048 001:068 JLINK_ReadMem (0x08001000, 0x1000 Bytes, ...) -- CPU_ReadMem(4096 bytes @ 0x08001000) -- Data:  27 3A 12 78 82 43 0E 4B 27 3B 1A 70 70 47 0C 48 ...  returns 0x00 (0046ms, 0948ms total)
T1048 001:115 JLINK_ReadMem (0x08002000, 0x1000 Bytes, ...) -- CPU_ReadMem(4096 bytes @ 0x08002000) -- Data:  0A 43 02 80 70 47 02 88 4F F6 FF 43 1A 40 02 80 ...  returns 0x00 (0046ms, 0994ms total)
T1048 001:163 JLINK_ReadMem (0x08003000, 0x1000 Bytes, ...) -- CPU_ReadMem(4096 bytes @ 0x08003000) -- Data:  00 EA C2 20 01 43 4F F4 F8 60 00 EA 83 10 01 43 ...  returns 0x00 (0046ms, 1040ms total)
T1048 001:210 JLINK_ReadMem (0x08004000, 0x1000 Bytes, ...) -- CPU_ReadMem(4096 bytes @ 0x08004000) -- Data:  10 00 00 F0 19 FA 04 F1 24 00 00 F0 15 FA 00 23 ...  returns 0x00 (0046ms, 1086ms total)
T1048 001:257 JLINK_ReadMem (0x08005000, 0x0FD4 Bytes, ...) -- CPU_ReadMem(4052 bytes @ 0x08005000) -- Data:  01 D1 01 20 00 E0 00 20 18 B9 FB F7 23 F9 00 BF ...  returns 0x00 (0045ms, 1132ms total)
T1048 001:358 JLINK_SetResetType(JLINKARM_RESET_TYPE_NORMAL)  returns JLINKARM_RESET_TYPE_NORMAL (0000ms, 1178ms total)
T1048 001:359 JLINK_Reset() >0x108 TIF>Found SWD-DP with ID 0x2BA01477 >0x33 TIF> >0x33 TIF> >0x35 TIF> >0x33 TIF> >0x35 TIF> >0x33 TIF> >0x33 TIF> >0x35 TIF> >0x33 TIF> >0x33 TIF> >0x35 TIF> >0x33 TIF> >0x33 TIF> >0x35 TIF> >0x33 TIF> >0x33 TIF> >0x35 TIF> >0x35 TIF> >0x35 TIF> >0x35 TIF> >0x33 TIF> >0x33 TIF> >0x33 TIF> >0x35 TIF> >0x35 TIF> >0x35 TIF> >0x35 TIF> >0x33 TIF> >0x33 TIF> >0x35 TIF> >0x35 TIF> >0x35 TIF> >0x33 TIF> >0x33 TIF>TPIU fitted. >0x35 TIF> >0x35 TIF> >0x35 TIF> >0x33 TIF>
 >0x33 TIF>ETM fitted. >0x35 TIF> >0x35 TIF> >0x35 TIF> >0x33 TIF> >0x33 TIF> >0x35 TIF> >0x35 TIF> >0x35 TIF> >0x33 TIF> >0x33 TIF>  FPUnit: 6 code (BP) slots and 2 literal slots >0x35 TIF> >0x35 TIF> >0x35 TIF> >0x33 TIF> >0x33 TIF> >0x35 TIF> >0x35 TIF> >0x35 TIF> >0x33 TIF> >0x33 TIF> >0x35 TIF> >0x35 TIF> >0x35 TIF> >0x33 TIF> >0x33 TIF>Found Cortex-M4 r0p1, Little endian. -- CPU_WriteMem(4 bytes @ 0xE000EDF0) -- CPU_WriteMem(4 bytes @ 0xE000EDFC) >0x35 TIF> -- CPU_WriteMem(4 bytes @ 0xE000ED0C)
 -- CPU_ReadMem(4 bytes @ 0xE000EDF0) -- CPU_ReadMem(4 bytes @ 0xE000EDF0) -- CPU_WriteMem(4 bytes @ 0xE000EDF0) -- CPU_WriteMem(4 bytes @ 0xE000EDFC) -- CPU is running -- CPU_ReadMem(4 bytes @ 0xE000EDF0) (0083ms, 1179ms total)
T1048 001:442 JLINK_ReadReg(R15)  returns 0x08000268 (0000ms, 1262ms total)
T1048 001:442 JLINK_ReadReg(XPSR)  returns 0x01000000 (0000ms, 1262ms total)
T1048 001:443 JLINK_ReadMem (0x08000268, 0x003C Bytes, ...) -- CPU_ReadMem(60 bytes @ 0x08000268) -- Data:  06 48 80 47 06 48 00 47 FE E7 FE E7 FE E7 FE E7 ...  returns 0x00 (0002ms, 1262ms total)
T1048 003:372 JLINK_ReadMemU32(0xE0001004, 0x0001 Items, ...) -- CPU_ReadMem(4 bytes @ 0xE0001004) -- Data:  01 00 00 40  returns 0x01 (0002ms, 1264ms total)
T2904 005:151 JLINK_SetBPEx(Addr = 0x08005254, Type = 0xFFFFFFF2)  returns 0x00000001 (0001ms, 1266ms total)
T2904 005:152 JLINK_Go() -- CPU_WriteMem(4 bytes @ 0xE0002000) -- CPU_WriteMem(4 bytes @ 0xE0002008) -- CPU_WriteMem(4 bytes @ 0xE000200C) -- CPU_WriteMem(4 bytes @ 0xE0002010) -- CPU_WriteMem(4 bytes @ 0xE0002014) -- CPU_WriteMem(4 bytes @ 0xE0002018) -- CPU_WriteMem(4 bytes @ 0xE000201C) (0010ms, 1267ms total)
T2904 005:263 JLINK_IsHalted()  returns FALSE (0001ms, 1277ms total)
T2904 005:366 JLINK_IsHalted()  returns FALSE (0001ms, 1277ms total)
T2904 005:468 JLINK_IsHalted()  returns FALSE (0001ms, 1277ms total)
T2904 005:570 JLINK_IsHalted()  returns FALSE (0001ms, 1277ms total)
T2904 005:672 JLINK_IsHalted()  returns FALSE (0001ms, 1277ms total)
T2904 005:774 JLINK_ReadMemU32(0xE0001004, 0x0001 Items, ...) -- CPU is running -- CPU_ReadMem(4 bytes @ 0xE0001004) -- Data:  01 00 00 40  returns 0x01 (0001ms, 1277ms total)
T2904 005:775 JLINK_IsHalted()  returns FALSE (0001ms, 1278ms total)
T2904 005:877 JLINK_IsHalted()  returns FALSE (0001ms, 1278ms total)
T2904 005:979 JLINK_IsHalted()  returns FALSE (0001ms, 1278ms total)
T2904 006:081 JLINK_IsHalted()  returns FALSE (0001ms, 1278ms total)
T2904 006:183 JLINK_IsHalted()  returns FALSE (0001ms, 1278ms total)
T2904 006:285 JLINK_IsHalted()  returns FALSE (0001ms, 1278ms total)
T2904 006:387 JLINK_ReadMemU32(0xE0001004, 0x0001 Items, ...) -- CPU is running -- CPU_ReadMem(4 bytes @ 0xE0001004) -- Data:  01 00 00 40  returns 0x01 (0001ms, 1278ms total)
T2904 006:388 JLINK_IsHalted()  returns FALSE (0002ms, 1279ms total)
T2904 006:491 JLINK_IsHalted()  returns FALSE (0001ms, 1279ms total)
T2904 006:593 JLINK_IsHalted()  returns FALSE (0001ms, 1279ms total)
T2904 006:695 JLINK_IsHalted()  returns FALSE (0001ms, 1279ms total)
T2904 006:797 JLINK_IsHalted()  returns FALSE (0001ms, 1279ms total)
T2904 006:899 JLINK_ReadMemU32(0xE0001004, 0x0001 Items, ...) -- CPU is running -- CPU_ReadMem(4 bytes @ 0xE0001004) -- Data:  01 00 00 40  returns 0x01 (0001ms, 1279ms total)
T2904 006:900 JLINK_IsHalted()  returns FALSE (0001ms, 1280ms total)
T2904 007:002 JLINK_IsHalted()  returns FALSE (0001ms, 1280ms total)
T2904 007:104 JLINK_IsHalted()  returns FALSE (0001ms, 1280ms total)
T2904 007:206 JLINK_IsHalted()  returns TRUE (0005ms, 1280ms total)
T2904 007:211 JLINK_Halt()  returns 0x00 (0000ms, 1280ms total)
T2904 007:211 JLINK_IsHalted()  returns TRUE (0000ms, 1280ms total)
T2904 007:212 JLINK_IsHalted()  returns TRUE (0000ms, 1280ms total)
T2904 007:212 JLINK_IsHalted()  returns TRUE (0000ms, 1280ms total)
T2904 007:212 JLINK_ReadReg(R15)  returns 0x08005254 (0000ms, 1280ms total)
T2904 007:212 JLINK_ReadReg(XPSR)  returns 0x01000000 (0000ms, 1280ms total)
T2904 007:212 JLINK_ClrBPEx(BPHandle = 0x00000001)  returns 0x00 (0000ms, 1280ms total)
T2904 007:212 JLINK_ReadMemU32(0xE000ED30, 0x0001 Items, ...) -- CPU_ReadMem(4 bytes @ 0xE000ED30) -- Data:  03 00 00 00  returns 0x01 (0002ms, 1280ms total)
T2904 007:214 JLINK_ReadMemU32(0xE0001028, 0x0001 Items, ...) -- CPU_ReadMem(4 bytes @ 0xE0001028) -- Data:  01 00 00 40  returns 0x01 (0001ms, 1282ms total)
T2904 007:215 JLINK_ReadMemU32(0xE0001038, 0x0001 Items, ...) -- CPU_ReadMem(4 bytes @ 0xE0001038) -- Data:  01 00 00 40  returns 0x01 (0001ms, 1283ms total)
T2904 007:216 JLINK_ReadMemU32(0xE0001048, 0x0001 Items, ...) -- CPU_ReadMem(4 bytes @ 0xE0001048) -- Data:  01 00 00 40  returns 0x01 (0002ms, 1284ms total)
T2904 007:218 JLINK_ReadMemU32(0xE0001058, 0x0001 Items, ...) -- CPU_ReadMem(4 bytes @ 0xE0001058) -- Data:  01 00 00 40  returns 0x01 (0001ms, 1286ms total)
T2904 007:219 JLINK_ReadReg(R0)  returns 0x00000003 (0000ms, 1287ms total)
T2904 007:220 JLINK_ReadReg(R1)  returns 0x00FFFF3F (0000ms, 1288ms total)
T2904 007:220 JLINK_ReadReg(R2)  returns 0x40011400 (0000ms, 1288ms total)
T2904 007:220 JLINK_ReadReg(R3)  returns 0x00000080 (0000ms, 1288ms total)
T2904 007:220 JLINK_ReadReg(R4)  returns 0xA5A5A5A5 (0001ms, 1288ms total)
T2904 007:221 JLINK_ReadReg(R5)  returns 0xA5A5A5A5 (0000ms, 1289ms total)
T2904 007:221 JLINK_ReadReg(R6)  returns 0xA5A5A5A5 (0000ms, 1289ms total)
T2904 007:221 JLINK_ReadReg(R7)  returns 0xA5A5A5A5 (0000ms, 1289ms total)
T2904 007:221 JLINK_ReadReg(R8)  returns 0xA5A5A5A5 (0000ms, 1289ms total)
T2904 007:221 JLINK_ReadReg(R9)  returns 0xA5A5A5A5 (0000ms, 1289ms total)
T2904 007:221 JLINK_ReadReg(R10)  returns 0xA5A5A5A5 (0001ms, 1289ms total)
T2904 007:222 JLINK_ReadReg(R11)  returns 0xA5A5A5A5 (0000ms, 1290ms total)
T2904 007:222 JLINK_ReadReg(R12)  returns 0xA5A5A5A5 (0000ms, 1290ms total)
T2904 007:222 JLINK_ReadReg(R13)  returns 0x20005618 (0000ms, 1290ms total)
T2904 007:222 JLINK_ReadReg(R14)  returns 0x08005255 (0000ms, 1290ms total)
T2904 007:222 JLINK_ReadReg(R15)  returns 0x08005254 (0000ms, 1290ms total)
T2904 007:222 JLINK_ReadReg(XPSR)  returns 0x01000000 (0001ms, 1290ms total)
T2904 007:223 JLINK_ReadReg(MSP)  returns 0x20008AE0 (0000ms, 1291ms total)
T2904 007:223 JLINK_ReadReg(PSP)  returns 0x20005618 (0000ms, 1291ms total)
T2904 007:223 JLINK_ReadReg(CFBP)  returns 0x02000000 (0000ms, 1291ms total)
T2904 007:223 JLINK_ReadReg(FPSCR)  returns 0x00000000 (0007ms, 1291ms total)
T2904 007:230 JLINK_ReadReg(FPS0)  returns 0x00000000 (0000ms, 1298ms total)
T2904 007:230 JLINK_ReadReg(FPS1)  returns 0x00000000 (0000ms, 1298ms total)
T2904 007:231 JLINK_ReadReg(FPS2)  returns 0x00000000 (0000ms, 1299ms total)
T2904 007:231 JLINK_ReadReg(FPS3)  returns 0x00000000 (0000ms, 1299ms total)
T2904 007:231 JLINK_ReadReg(FPS4)  returns 0x00000000 (0000ms, 1299ms total)
T2904 007:231 JLINK_ReadReg(FPS5)  returns 0x00000000 (0001ms, 1299ms total)
T2904 007:232 JLINK_ReadReg(FPS6)  returns 0x00000000 (0000ms, 1300ms total)
T2904 007:232 JLINK_ReadReg(FPS7)  returns 0x00000000 (0000ms, 1300ms total)
T2904 007:232 JLINK_ReadReg(FPS8)  returns 0x00000000 (0000ms, 1300ms total)
T2904 007:232 JLINK_ReadReg(FPS9)  returns 0x00000000 (0000ms, 1300ms total)
T2904 007:232 JLINK_ReadReg(FPS10)  returns 0x00000000 (0001ms, 1300ms total)
T2904 007:233 JLINK_ReadReg(FPS11)  returns 0x00000000 (0000ms, 1301ms total)
T2904 007:233 JLINK_ReadReg(FPS12)  returns 0x00000000 (0000ms, 1301ms total)
T2904 007:233 JLINK_ReadReg(FPS13)  returns 0x00000000 (0000ms, 1301ms total)
T2904 007:233 JLINK_ReadReg(FPS14)  returns 0x00000000 (0000ms, 1301ms total)
T2904 007:233 JLINK_ReadReg(FPS15)  returns 0x00000000 (0001ms, 1301ms total)
T2904 007:234 JLINK_ReadReg(FPS16)  returns 0x00000000 (0000ms, 1302ms total)
T2904 007:234 JLINK_ReadReg(FPS17)  returns 0x00000000 (0000ms, 1302ms total)
T2904 007:234 JLINK_ReadReg(FPS18)  returns 0x00000000 (0000ms, 1302ms total)
T2904 007:234 JLINK_ReadReg(FPS19)  returns 0x00000000 (0000ms, 1302ms total)
T2904 007:234 JLINK_ReadReg(FPS20)  returns 0x00000000 (0001ms, 1302ms total)
T2904 007:235 JLINK_ReadReg(FPS31)  returns 0x00000000 (0000ms, 1303ms total)
T2904 007:235 JLINK_ReadReg(FPS7)  returns 0x00000000 (0000ms, 1303ms total)
T2904 007:235 JLINK_ReadReg(FPS8)  returns 0x00000000 (0000ms, 1303ms total)
T2904 007:235 JLINK_ReadReg(FPS9)  returns 0x00000000 (0001ms, 1303ms total)
T2904 007:236 JLINK_ReadReg(FPS10)  returns 0x00000000 (0000ms, 1304ms total)
T2904 007:236 JLINK_ReadReg(FPS11)  returns 0x00000000 (0000ms, 1304ms total)
T2904 007:236 JLINK_ReadReg(FPS12)  returns 0x00000000 (0000ms, 1304ms total)
T2904 007:236 JLINK_ReadReg(FPS13)  returns 0x00000000 (0000ms, 1304ms total)
T2904 007:236 JLINK_ReadReg(FPS14)  returns 0x00000000 (0001ms, 1304ms total)
T2904 007:237 JLINK_ReadReg(FPS15)  returns 0x00000000 (0000ms, 1305ms total)
T2904 007:237 JLINK_ReadReg(FPS16)  returns 0x00000000 (0000ms, 1305ms total)
T1048 007:244 JLINK_ReadMem (0x00000000, 0x0004 Bytes, ...) -- CPU_ReadMem(4 bytes @ 0x00000000) -- Data:  00 8B 00 20  returns 0x00 (0002ms, 1305ms total)
T1048 007:251 JLINK_ReadMemU32(0xE0001004, 0x0001 Items, ...) -- CPU_ReadMem(4 bytes @ 0xE0001004) -- Data:  01 00 00 40  returns 0x01 (0002ms, 1307ms total)
T1048 007:256 JLINK_ReadMem (0x08005254, 0x003C Bytes, ...) -- CPU_ReadMem(128 bytes @ 0x08005240) -- Updating DA cache (128 bytes @ 0x08005240) -- Read from DA cache (60 bytes @ 0x08005254) -- Data:  41 49 48 78 00 F0 5B F9 EB E7 06 E0 4F F4 FA 60 ...  returns 0x00 (0004ms, 1309ms total)
T1048 008:510 JLINK_ReadMem (0x20000095, 0x0001 Bytes, ...) -- CPU_ReadMem(1 bytes @ 0x20000095) -- Data:  2D  returns 0x00 (0002ms, 1313ms total)
T2904 010:398 JLINK_Step() -- Read from DA cache (2 bytes @ 0x08005254) -- Not simulated -- CPU_WriteMem(4 bytes @ 0xE0002008) -- CPU_WriteMem(4 bytes @ 0xE000200C) -- CPU_WriteMem(4 bytes @ 0xE0002010) -- CPU_WriteMem(4 bytes @ 0xE0002014) -- CPU_WriteMem(4 bytes @ 0xE0002018) -- CPU_WriteMem(4 bytes @ 0xE000201C)  returns 0x00 (0014ms, 1315ms total)
T2904 010:412 JLINK_ReadReg(R15)  returns 0x08005256 (0000ms, 1329ms total)
T2904 010:412 JLINK_ReadReg(XPSR)  returns 0x01000000 (0000ms, 1329ms total)
T2904 010:412 JLINK_SetBPEx(Addr = 0x08005254, Type = 0xFFFFFFF2)  returns 0x00000002 (0000ms, 1329ms total)
T2904 010:412 JLINK_Go() -- CPU_WriteMem(4 bytes @ 0xE0002008) -- CPU_WriteMem(4 bytes @ 0xE000200C) -- CPU_WriteMem(4 bytes @ 0xE0002010) -- CPU_WriteMem(4 bytes @ 0xE0002014) -- CPU_WriteMem(4 bytes @ 0xE0002018) -- CPU_WriteMem(4 bytes @ 0xE000201C) (0008ms, 1329ms total)
T2904 010:521 JLINK_IsHalted()  returns FALSE (0001ms, 1337ms total)
T2904 010:623 JLINK_IsHalted()  returns FALSE (0001ms, 1337ms total)
T2904 010:725 JLINK_IsHalted()  returns FALSE (0001ms, 1337ms total)
T2904 010:827 JLINK_IsHalted()  returns FALSE (0001ms, 1337ms total)
T2904 010:930 JLINK_ReadMemU32(0xE0001004, 0x0001 Items, ...) -- CPU is running -- CPU_ReadMem(4 bytes @ 0xE0001004) -- Data:  01 00 00 40  returns 0x01 (0000ms, 1337ms total)
T2904 010:930 JLINK_IsHalted()  returns FALSE (0002ms, 1337ms total)
T1048 011:026 JLINK_ReadMem (0x20000095, 0x0001 Bytes, ...) -- CPU is running -- CPU_ReadMem(1 bytes @ 0x20000095) -- Data:  2D  returns 0x00 (0001ms, 1337ms total)
T2904 011:034 JLINK_IsHalted()  returns FALSE (0001ms, 1338ms total)
T2904 011:137 JLINK_IsHalted()  returns FALSE (0001ms, 1338ms total)
T2904 011:239 JLINK_IsHalted()  returns FALSE (0001ms, 1338ms total)
T2904 011:341 JLINK_IsHalted()  returns FALSE (0001ms, 1338ms total)
T2904 011:443 JLINK_IsHalted()  returns FALSE (0002ms, 1338ms total)
T2904 011:546 JLINK_ReadMemU32(0xE0001004, 0x0001 Items, ...) -- CPU is running -- CPU_ReadMem(4 bytes @ 0xE0001004) -- Data:  01 00 00 40  returns 0x01 (0001ms, 1338ms total)
T2904 011:547 JLINK_IsHalted()  returns FALSE (0002ms, 1339ms total)
T2904 011:650 JLINK_IsHalted()  returns FALSE (0001ms, 1339ms total)
T2904 011:752 JLINK_IsHalted()  returns FALSE (0001ms, 1339ms total)
T2904 011:854 JLINK_IsHalted()  returns FALSE (0001ms, 1339ms total)
T2904 011:956 JLINK_IsHalted()  returns FALSE (0001ms, 1339ms total)
T2904 012:059 JLINK_ReadMemU32(0xE0001004, 0x0001 Items, ...) -- CPU is running -- CPU_ReadMem(4 bytes @ 0xE0001004) -- Data:  01 00 00 40  returns 0x01 (0001ms, 1339ms total)
T2904 012:060 JLINK_IsHalted()  returns FALSE (0002ms, 1340ms total)
T2904 012:163 JLINK_IsHalted()  returns FALSE (0001ms, 1340ms total)
T2904 012:265 JLINK_IsHalted()  returns FALSE (0001ms, 1340ms total)
T2904 012:367 JLINK_IsHalted()  returns FALSE (0001ms, 1340ms total)
T2904 012:469 JLINK_IsHalted()  returns TRUE (0005ms, 1340ms total)
T2904 012:474 JLINK_Halt()  returns 0x00 (0000ms, 1340ms total)
T2904 012:474 JLINK_IsHalted()  returns TRUE (0000ms, 1340ms total)
T2904 012:474 JLINK_IsHalted()  returns TRUE (0000ms, 1340ms total)
T2904 012:475 JLINK_IsHalted()  returns TRUE (0000ms, 1340ms total)
T2904 012:475 JLINK_ReadReg(R15)  returns 0x08005254 (0000ms, 1340ms total)
T2904 012:475 JLINK_ReadReg(XPSR)  returns 0x01000000 (0000ms, 1340ms total)
T2904 012:475 JLINK_ClrBPEx(BPHandle = 0x00000002)  returns 0x00 (0000ms, 1340ms total)
T2904 012:475 JLINK_ReadMemU32(0xE000ED30, 0x0001 Items, ...) -- CPU_ReadMem(4 bytes @ 0xE000ED30) -- Data:  03 00 00 00  returns 0x01 (0001ms, 1340ms total)
T2904 012:476 JLINK_ReadMemU32(0xE0001028, 0x0001 Items, ...) -- CPU_ReadMem(4 bytes @ 0xE0001028) -- Data:  01 00 00 40  returns 0x01 (0002ms, 1341ms total)
T2904 012:478 JLINK_ReadMemU32(0xE0001038, 0x0001 Items, ...) -- CPU_ReadMem(4 bytes @ 0xE0001038) -- Data:  01 00 00 40  returns 0x01 (0001ms, 1343ms total)
T2904 012:479 JLINK_ReadMemU32(0xE0001048, 0x0001 Items, ...) -- CPU_ReadMem(4 bytes @ 0xE0001048) -- Data:  01 00 00 40  returns 0x01 (0001ms, 1344ms total)
T2904 012:480 JLINK_ReadMemU32(0xE0001058, 0x0001 Items, ...) -- CPU_ReadMem(4 bytes @ 0xE0001058) -- Data:  01 00 00 40  returns 0x01 (0001ms, 1345ms total)
T2904 012:482 JLINK_ReadReg(R0)  returns 0x00000003 (0000ms, 1346ms total)
T2904 012:482 JLINK_ReadReg(R1)  returns 0x00FFFF3F (0000ms, 1346ms total)
T2904 012:482 JLINK_ReadReg(R2)  returns 0x40011400 (0000ms, 1346ms total)
T2904 012:482 JLINK_ReadReg(R3)  returns 0x00000080 (0000ms, 1346ms total)
T2904 012:482 JLINK_ReadReg(R4)  returns 0xA5A5A5A5 (0000ms, 1346ms total)
T2904 012:482 JLINK_ReadReg(R5)  returns 0xA5A5A5A5 (0001ms, 1346ms total)
T2904 012:483 JLINK_ReadReg(R6)  returns 0xA5A5A5A5 (0000ms, 1347ms total)
T2904 012:483 JLINK_ReadReg(R7)  returns 0xA5A5A5A5 (0000ms, 1347ms total)
T2904 012:483 JLINK_ReadReg(R8)  returns 0xA5A5A5A5 (0000ms, 1347ms total)
T2904 012:483 JLINK_ReadReg(R9)  returns 0xA5A5A5A5 (0000ms, 1347ms total)
T2904 012:483 JLINK_ReadReg(R10)  returns 0xA5A5A5A5 (0000ms, 1347ms total)
T2904 012:483 JLINK_ReadReg(R11)  returns 0xA5A5A5A5 (0000ms, 1347ms total)
T2904 012:483 JLINK_ReadReg(R12)  returns 0xA5A5A5A5 (0001ms, 1347ms total)
T2904 012:484 JLINK_ReadReg(R13)  returns 0x20005618 (0000ms, 1348ms total)
T2904 012:484 JLINK_ReadReg(R14)  returns 0x08005255 (0000ms, 1348ms total)
T2904 012:484 JLINK_ReadReg(R15)  returns 0x08005254 (0000ms, 1348ms total)
T2904 012:484 JLINK_ReadReg(XPSR)  returns 0x01000000 (0000ms, 1348ms total)
T2904 012:484 JLINK_ReadReg(MSP)  returns 0x20008AE0 (0000ms, 1348ms total)
T2904 012:484 JLINK_ReadReg(PSP)  returns 0x20005618 (0001ms, 1348ms total)
T2904 012:485 JLINK_ReadReg(CFBP)  returns 0x02000000 (0000ms, 1349ms total)
T2904 012:485 JLINK_ReadReg(FPSCR)  returns 0x00000000 (0007ms, 1349ms total)
T2904 012:492 JLINK_ReadReg(FPS0)  returns 0x00000000 (0000ms, 1356ms total)
T2904 012:492 JLINK_ReadReg(FPS1)  returns 0x00000000 (0000ms, 1356ms total)
T2904 012:492 JLINK_ReadReg(FPS2)  returns 0x00000000 (0000ms, 1356ms total)
T2904 012:492 JLINK_ReadReg(FPS3)  returns 0x00000000 (0000ms, 1356ms total)
T2904 012:492 JLINK_ReadReg(FPS4)  returns 0x00000000 (0001ms, 1356ms total)
T2904 012:493 JLINK_ReadReg(FPS5)  returns 0x00000000 (0000ms, 1357ms total)
T2904 012:493 JLINK_ReadReg(FPS6)  returns 0x00000000 (0000ms, 1357ms total)
T2904 012:493 JLINK_ReadReg(FPS7)  returns 0x00000000 (0000ms, 1357ms total)
T2904 012:493 JLINK_ReadReg(FPS8)  returns 0x00000000 (0000ms, 1357ms total)
T2904 012:493 JLINK_ReadReg(FPS9)  returns 0x00000000 (0000ms, 1357ms total)
T2904 012:493 JLINK_ReadReg(FPS10)  returns 0x00000000 (0000ms, 1357ms total)
T2904 012:493 JLINK_ReadReg(FPS11)  returns 0x00000000 (0000ms, 1357ms total)
T2904 012:493 JLINK_ReadReg(FPS12)  returns 0x00000000 (0001ms, 1357ms total)
T2904 012:494 JLINK_ReadReg(FPS13)  returns 0x00000000 (0000ms, 1358ms total)
T2904 012:494 JLINK_ReadReg(FPS14)  returns 0x00000000 (0000ms, 1358ms total)
T2904 012:494 JLINK_ReadReg(FPS15)  returns 0x00000000 (0000ms, 1358ms total)
T2904 012:494 JLINK_ReadReg(FPS16)  returns 0x00000000 (0000ms, 1358ms total)
T2904 012:494 JLINK_ReadReg(FPS17)  returns 0x00000000 (0000ms, 1358ms total)
T2904 012:494 JLINK_ReadReg(FPS18)  returns 0x00000000 (0001ms, 1358ms total)
T2904 012:495 JLINK_ReadReg(FPS19)  returns 0x00000000 (0000ms, 1359ms total)
T2904 012:495 JLINK_ReadReg(FPS20)  returns 0x00000000 (0000ms, 1359ms total)
T2904 012:495 JLINK_ReadReg(FPS31)  returns 0x00000000 (0000ms, 1359ms total)
T2904 012:495 JLINK_ReadReg(FPS7)  returns 0x00000000 (0000ms, 1359ms total)
T2904 012:495 JLINK_ReadReg(FPS8)  returns 0x00000000 (0000ms, 1359ms total)
T2904 012:495 JLINK_ReadReg(FPS9)  returns 0x00000000 (0001ms, 1359ms total)
T2904 012:496 JLINK_ReadReg(FPS10)  returns 0x00000000 (0000ms, 1360ms total)
T2904 012:496 JLINK_ReadReg(FPS11)  returns 0x00000000 (0000ms, 1360ms total)
T2904 012:496 JLINK_ReadReg(FPS12)  returns 0x00000000 (0000ms, 1360ms total)
T2904 012:496 JLINK_ReadReg(FPS13)  returns 0x00000000 (0000ms, 1360ms total)
T2904 012:496 JLINK_ReadReg(FPS14)  returns 0x00000000 (0000ms, 1360ms total)
T2904 012:496 JLINK_ReadReg(FPS15)  returns 0x00000000 (0001ms, 1360ms total)
T2904 012:497 JLINK_ReadReg(FPS16)  returns 0x00000000 (0000ms, 1361ms total)
T1048 012:498 JLINK_ReadMem (0x00000000, 0x0004 Bytes, ...) -- CPU_ReadMem(4 bytes @ 0x00000000) -- Data:  00 8B 00 20  returns 0x00 (0001ms, 1361ms total)
T1048 012:499 JLINK_ReadMemU32(0xE0001004, 0x0001 Items, ...) -- CPU_ReadMem(4 bytes @ 0xE0001004) -- Data:  01 00 00 40  returns 0x01 (0002ms, 1362ms total)
T2904 013:227 JLINK_Step() -- CPU_ReadMem(64 bytes @ 0x08005240) -- Updating DA cache (64 bytes @ 0x08005240) -- Read from DA cache (2 bytes @ 0x08005254) -- Not simulated -- CPU_WriteMem(4 bytes @ 0xE0002008) -- CPU_WriteMem(4 bytes @ 0xE000200C) -- CPU_WriteMem(4 bytes @ 0xE0002010) -- CPU_WriteMem(4 bytes @ 0xE0002014) -- CPU_WriteMem(4 bytes @ 0xE0002018) -- CPU_WriteMem(4 bytes @ 0xE000201C)  returns 0x00 (0015ms, 1364ms total)
T2904 013:242 JLINK_ReadReg(R15)  returns 0x08005256 (0000ms, 1379ms total)
T2904 013:242 JLINK_ReadReg(XPSR)  returns 0x01000000 (0000ms, 1379ms total)
T2904 013:242 JLINK_SetBPEx(Addr = 0x08005254, Type = 0xFFFFFFF2)  returns 0x00000003 (0001ms, 1379ms total)
T2904 013:243 JLINK_Go() -- CPU_WriteMem(4 bytes @ 0xE0002008) -- CPU_WriteMem(4 bytes @ 0xE000200C) -- CPU_WriteMem(4 bytes @ 0xE0002010) -- CPU_WriteMem(4 bytes @ 0xE0002014) -- CPU_WriteMem(4 bytes @ 0xE0002018) -- CPU_WriteMem(4 bytes @ 0xE000201C) (0008ms, 1380ms total)
T2904 013:352 JLINK_IsHalted()  returns FALSE (0001ms, 1388ms total)
T2904 013:454 JLINK_IsHalted()  returns FALSE (0001ms, 1388ms total)
T2904 013:556 JLINK_IsHalted()  returns FALSE (0002ms, 1388ms total)
T2904 013:659 JLINK_IsHalted()  returns FALSE (0001ms, 1388ms total)
T2904 013:761 JLINK_ReadMemU32(0xE0001004, 0x0001 Items, ...) -- CPU is running -- CPU_ReadMem(4 bytes @ 0xE0001004) -- Data:  01 00 00 40  returns 0x01 (0001ms, 1388ms total)
T2904 013:766 JLINK_IsHalted()  returns FALSE (0002ms, 1389ms total)
T2904 013:869 JLINK_IsHalted()  returns FALSE (0001ms, 1389ms total)
T2904 013:971 JLINK_IsHalted()  returns FALSE (0001ms, 1389ms total)
T2904 014:073 JLINK_IsHalted()  returns FALSE (0001ms, 1389ms total)
T2904 014:175 JLINK_IsHalted()  returns FALSE (0001ms, 1389ms total)
T2904 014:277 JLINK_ReadMemU32(0xE0001004, 0x0001 Items, ...) -- CPU is running -- CPU_ReadMem(4 bytes @ 0xE0001004) -- Data:  01 00 00 40  returns 0x01 (0002ms, 1389ms total)
T2904 014:279 JLINK_IsHalted()  returns FALSE (0001ms, 1391ms total)
T2904 014:381 JLINK_IsHalted()  returns FALSE (0001ms, 1391ms total)
T2904 014:483 JLINK_IsHalted()  returns FALSE (0001ms, 1391ms total)
T2904 014:585 JLINK_IsHalted()  returns FALSE (0002ms, 1391ms total)
T2904 014:687 JLINK_IsHalted()  returns FALSE (0001ms, 1391ms total)
T2904 014:789 JLINK_ReadMemU32(0xE0001004, 0x0001 Items, ...) -- CPU is running -- CPU_ReadMem(4 bytes @ 0xE0001004) -- Data:  01 00 00 40  returns 0x01 (0001ms, 1391ms total)
T2904 014:790 JLINK_IsHalted()  returns FALSE (0001ms, 1392ms total)
T2904 014:892 JLINK_IsHalted()  returns FALSE (0001ms, 1392ms total)
T2904 014:994 JLINK_IsHalted()  returns FALSE (0001ms, 1392ms total)
T2904 015:096 JLINK_IsHalted()  returns FALSE (0001ms, 1392ms total)
T2904 015:198 JLINK_IsHalted()  returns FALSE (0001ms, 1392ms total)
T2904 015:300 JLINK_IsHalted()  returns TRUE (0005ms, 1392ms total)
T2904 015:305 JLINK_Halt()  returns 0x00 (0000ms, 1392ms total)
T2904 015:305 JLINK_IsHalted()  returns TRUE (0000ms, 1392ms total)
T2904 015:305 JLINK_IsHalted()  returns TRUE (0000ms, 1392ms total)
T2904 015:305 JLINK_IsHalted()  returns TRUE (0001ms, 1392ms total)
T2904 015:306 JLINK_ReadReg(R15)  returns 0x08005254 (0000ms, 1392ms total)
T2904 015:306 JLINK_ReadReg(XPSR)  returns 0x01000000 (0000ms, 1392ms total)
T2904 015:306 JLINK_ClrBPEx(BPHandle = 0x00000003)  returns 0x00 (0000ms, 1392ms total)
T2904 015:306 JLINK_ReadMemU32(0xE000ED30, 0x0001 Items, ...) -- CPU_ReadMem(4 bytes @ 0xE000ED30) -- Data:  03 00 00 00  returns 0x01 (0001ms, 1392ms total)
T2904 015:307 JLINK_ReadMemU32(0xE0001028, 0x0001 Items, ...) -- CPU_ReadMem(4 bytes @ 0xE0001028) -- Data:  01 00 00 40  returns 0x01 (0002ms, 1393ms total)
T2904 015:309 JLINK_ReadMemU32(0xE0001038, 0x0001 Items, ...) -- CPU_ReadMem(4 bytes @ 0xE0001038) -- Data:  01 00 00 40  returns 0x01 (0001ms, 1395ms total)
T2904 015:310 JLINK_ReadMemU32(0xE0001048, 0x0001 Items, ...) -- CPU_ReadMem(4 bytes @ 0xE0001048) -- Data:  01 00 00 40  returns 0x01 (0001ms, 1396ms total)
T2904 015:311 JLINK_ReadMemU32(0xE0001058, 0x0001 Items, ...) -- CPU_ReadMem(4 bytes @ 0xE0001058) -- Data:  01 00 00 40  returns 0x01 (0002ms, 1397ms total)
T2904 015:313 JLINK_ReadReg(R0)  returns 0x00000003 (0000ms, 1399ms total)
T2904 015:313 JLINK_ReadReg(R1)  returns 0x00FFFF3F (0000ms, 1399ms total)
T2904 015:313 JLINK_ReadReg(R2)  returns 0x40011400 (0000ms, 1399ms total)
T2904 015:313 JLINK_ReadReg(R3)  returns 0x00000080 (0000ms, 1399ms total)
T2904 015:314 JLINK_ReadReg(R4)  returns 0xA5A5A5A5 (0000ms, 1400ms total)
T2904 015:314 JLINK_ReadReg(R5)  returns 0xA5A5A5A5 (0000ms, 1400ms total)
T2904 015:314 JLINK_ReadReg(R6)  returns 0xA5A5A5A5 (0000ms, 1400ms total)
T2904 015:314 JLINK_ReadReg(R7)  returns 0xA5A5A5A5 (0000ms, 1400ms total)
T2904 015:314 JLINK_ReadReg(R8)  returns 0xA5A5A5A5 (0000ms, 1400ms total)
T2904 015:314 JLINK_ReadReg(R9)  returns 0xA5A5A5A5 (0000ms, 1400ms total)
T2904 015:314 JLINK_ReadReg(R10)  returns 0xA5A5A5A5 (0001ms, 1400ms total)
T2904 015:315 JLINK_ReadReg(R11)  returns 0xA5A5A5A5 (0000ms, 1401ms total)
T2904 015:315 JLINK_ReadReg(R12)  returns 0xA5A5A5A5 (0000ms, 1401ms total)
T2904 015:315 JLINK_ReadReg(R13)  returns 0x20005618 (0000ms, 1401ms total)
T2904 015:315 JLINK_ReadReg(R14)  returns 0x08005255 (0000ms, 1401ms total)
T2904 015:315 JLINK_ReadReg(R15)  returns 0x08005254 (0001ms, 1401ms total)
T2904 015:316 JLINK_ReadReg(XPSR)  returns 0x01000000 (0000ms, 1402ms total)
T2904 015:316 JLINK_ReadReg(MSP)  returns 0x20008AE0 (0000ms, 1402ms total)
T2904 015:316 JLINK_ReadReg(PSP)  returns 0x20005618 (0000ms, 1402ms total)
T2904 015:316 JLINK_ReadReg(CFBP)  returns 0x02000000 (0000ms, 1402ms total)
T2904 015:316 JLINK_ReadReg(FPSCR)  returns 0x00000000 (0007ms, 1402ms total)
T2904 015:323 JLINK_ReadReg(FPS0)  returns 0x00000000 (0001ms, 1409ms total)
T2904 015:324 JLINK_ReadReg(FPS1)  returns 0x00000000 (0000ms, 1410ms total)
T2904 015:324 JLINK_ReadReg(FPS2)  returns 0x00000000 (0000ms, 1410ms total)
T2904 015:324 JLINK_ReadReg(FPS3)  returns 0x00000000 (0000ms, 1410ms total)
T2904 015:324 JLINK_ReadReg(FPS4)  returns 0x00000000 (0000ms, 1410ms total)
T2904 015:324 JLINK_ReadReg(FPS5)  returns 0x00000000 (0000ms, 1410ms total)
T2904 015:324 JLINK_ReadReg(FPS6)  returns 0x00000000 (0000ms, 1410ms total)
T2904 015:324 JLINK_ReadReg(FPS7)  returns 0x00000000 (0000ms, 1410ms total)
T2904 015:324 JLINK_ReadReg(FPS8)  returns 0x00000000 (0001ms, 1410ms total)
T2904 015:325 JLINK_ReadReg(FPS9)  returns 0x00000000 (0000ms, 1411ms total)
T2904 015:325 JLINK_ReadReg(FPS10)  returns 0x00000000 (0000ms, 1411ms total)
T2904 015:325 JLINK_ReadReg(FPS11)  returns 0x00000000 (0000ms, 1411ms total)
T2904 015:325 JLINK_ReadReg(FPS12)  returns 0x00000000 (0000ms, 1411ms total)
T2904 015:325 JLINK_ReadReg(FPS13)  returns 0x00000000 (0000ms, 1411ms total)
T2904 015:325 JLINK_ReadReg(FPS14)  returns 0x00000000 (0000ms, 1411ms total)
T2904 015:325 JLINK_ReadReg(FPS15)  returns 0x00000000 (0001ms, 1411ms total)
T2904 015:326 JLINK_ReadReg(FPS16)  returns 0x00000000 (0000ms, 1412ms total)
T2904 015:326 JLINK_ReadReg(FPS17)  returns 0x00000000 (0000ms, 1412ms total)
T2904 015:326 JLINK_ReadReg(FPS18)  returns 0x00000000 (0000ms, 1412ms total)
T2904 015:326 JLINK_ReadReg(FPS19)  returns 0x00000000 (0000ms, 1412ms total)
T2904 015:326 JLINK_ReadReg(FPS20)  returns 0x00000000 (0000ms, 1412ms total)
T2904 015:326 JLINK_ReadReg(FPS31)  returns 0x00000000 (0001ms, 1412ms total)
T2904 015:327 JLINK_ReadReg(FPS7)  returns 0x00000000 (0000ms, 1413ms total)
T2904 015:327 JLINK_ReadReg(FPS8)  returns 0x00000000 (0000ms, 1413ms total)
T2904 015:327 JLINK_ReadReg(FPS9)  returns 0x00000000 (0000ms, 1413ms total)
T2904 015:327 JLINK_ReadReg(FPS10)  returns 0x00000000 (0000ms, 1413ms total)
T2904 015:327 JLINK_ReadReg(FPS11)  returns 0x00000000 (0000ms, 1413ms total)
T2904 015:327 JLINK_ReadReg(FPS12)  returns 0x00000000 (0000ms, 1413ms total)
T2904 015:328 JLINK_ReadReg(FPS13)  returns 0x00000000 (0000ms, 1414ms total)
T2904 015:328 JLINK_ReadReg(FPS14)  returns 0x00000000 (0000ms, 1414ms total)
T2904 015:328 JLINK_ReadReg(FPS15)  returns 0x00000000 (0000ms, 1414ms total)
T2904 015:328 JLINK_ReadReg(FPS16)  returns 0x00000000 (0000ms, 1414ms total)
T1048 015:329 JLINK_ReadMem (0x00000000, 0x0004 Bytes, ...) -- CPU_ReadMem(4 bytes @ 0x00000000) -- Data:  00 8B 00 20  returns 0x00 (0002ms, 1414ms total)
T1048 015:331 JLINK_ReadMemU32(0xE0001004, 0x0001 Items, ...) -- CPU_ReadMem(4 bytes @ 0xE0001004) -- Data:  01 00 00 40  returns 0x01 (0001ms, 1416ms total)
T2904 016:295 JLINK_Step() -- CPU_ReadMem(64 bytes @ 0x08005240) -- Updating DA cache (64 bytes @ 0x08005240) -- Read from DA cache (2 bytes @ 0x08005254) -- Not simulated -- CPU_WriteMem(4 bytes @ 0xE0002008) -- CPU_WriteMem(4 bytes @ 0xE000200C) -- CPU_WriteMem(4 bytes @ 0xE0002010) -- CPU_WriteMem(4 bytes @ 0xE0002014) -- CPU_WriteMem(4 bytes @ 0xE0002018) -- CPU_WriteMem(4 bytes @ 0xE000201C)  returns 0x00 (0016ms, 1417ms total)
T2904 016:311 JLINK_ReadReg(R15)  returns 0x08005256 (0001ms, 1433ms total)
T2904 016:312 JLINK_ReadReg(XPSR)  returns 0x01000000 (0000ms, 1434ms total)
T2904 016:312 JLINK_SetBPEx(Addr = 0x08005254, Type = 0xFFFFFFF2)  returns 0x00000004 (0000ms, 1434ms total)
T2904 016:312 JLINK_Go() -- CPU_WriteMem(4 bytes @ 0xE0002008) -- CPU_WriteMem(4 bytes @ 0xE000200C) -- CPU_WriteMem(4 bytes @ 0xE0002010) -- CPU_WriteMem(4 bytes @ 0xE0002014) -- CPU_WriteMem(4 bytes @ 0xE0002018) -- CPU_WriteMem(4 bytes @ 0xE000201C) (0008ms, 1434ms total)
T2904 016:421 JLINK_IsHalted()  returns FALSE (0001ms, 1442ms total)
T2904 016:524 JLINK_IsHalted()  returns FALSE (0001ms, 1442ms total)
T2904 016:626 JLINK_IsHalted()  returns FALSE (0001ms, 1442ms total)
T2904 016:728 JLINK_IsHalted()  returns FALSE (0001ms, 1442ms total)
T2904 016:830 JLINK_IsHalted()  returns FALSE (0002ms, 1442ms total)
T2904 016:934 JLINK_ReadMemU32(0xE0001004, 0x0001 Items, ...) -- CPU is running -- CPU_ReadMem(4 bytes @ 0xE0001004) -- Data:  01 00 00 40  returns 0x01 (0001ms, 1442ms total)
T2904 016:937 JLINK_IsHalted()  returns FALSE (0001ms, 1443ms total)
T2904 017:039 JLINK_IsHalted()  returns FALSE (0001ms, 1443ms total)
T2904 017:141 JLINK_IsHalted()  returns FALSE (0001ms, 1443ms total)
T2904 017:243 JLINK_IsHalted()  returns FALSE (0001ms, 1443ms total)
T2904 017:345 JLINK_IsHalted()  returns FALSE (0002ms, 1443ms total)
T2904 017:448 JLINK_ReadMemU32(0xE0001004, 0x0001 Items, ...) -- CPU is running -- CPU_ReadMem(4 bytes @ 0xE0001004) -- Data:  01 00 00 40  returns 0x01 (0001ms, 1443ms total)
T2904 017:449 JLINK_IsHalted()  returns FALSE (0002ms, 1444ms total)
T2904 017:552 JLINK_IsHalted()  returns FALSE (0001ms, 1444ms total)
T2904 017:655 JLINK_IsHalted()  returns FALSE (0001ms, 1444ms total)
T2904 017:757 JLINK_IsHalted()  returns FALSE (0001ms, 1444ms total)
T2904 017:859 JLINK_IsHalted()  returns FALSE (0001ms, 1444ms total)
T2904 017:961 JLINK_ReadMemU32(0xE0001004, 0x0001 Items, ...) -- CPU is running -- CPU_ReadMem(4 bytes @ 0xE0001004) -- Data:  01 00 00 40  returns 0x01 (0001ms, 1444ms total)
T2904 017:962 JLINK_IsHalted()  returns FALSE (0001ms, 1445ms total)
T2904 018:064 JLINK_IsHalted()  returns FALSE (0001ms, 1445ms total)
T2904 018:166 JLINK_IsHalted()  returns FALSE (0001ms, 1445ms total)
T2904 018:268 JLINK_IsHalted()  returns FALSE (0001ms, 1445ms total)
T2904 018:370 JLINK_IsHalted()  returns TRUE (0005ms, 1445ms total)
T2904 018:376 JLINK_Halt()  returns 0x00 (0000ms, 1445ms total)
T2904 018:376 JLINK_IsHalted()  returns TRUE (0000ms, 1445ms total)
T2904 018:376 JLINK_IsHalted()  returns TRUE (0000ms, 1445ms total)
T2904 018:376 JLINK_IsHalted()  returns TRUE (0000ms, 1445ms total)
T2904 018:376 JLINK_ReadReg(R15)  returns 0x08005254 (0000ms, 1445ms total)
T2904 018:376 JLINK_ReadReg(XPSR)  returns 0x01000000 (0000ms, 1445ms total)
T2904 018:376 JLINK_ClrBPEx(BPHandle = 0x00000004)  returns 0x00 (0000ms, 1445ms total)
T2904 018:376 JLINK_ReadMemU32(0xE000ED30, 0x0001 Items, ...) -- CPU_ReadMem(4 bytes @ 0xE000ED30) -- Data:  03 00 00 00  returns 0x01 (0002ms, 1445ms total)
T2904 018:378 JLINK_ReadMemU32(0xE0001028, 0x0001 Items, ...) -- CPU_ReadMem(4 bytes @ 0xE0001028) -- Data:  01 00 00 40  returns 0x01 (0001ms, 1447ms total)
T2904 018:379 JLINK_ReadMemU32(0xE0001038, 0x0001 Items, ...) -- CPU_ReadMem(4 bytes @ 0xE0001038) -- Data:  01 00 00 40  returns 0x01 (0002ms, 1448ms total)
T2904 018:381 JLINK_ReadMemU32(0xE0001048, 0x0001 Items, ...) -- CPU_ReadMem(4 bytes @ 0xE0001048) -- Data:  01 00 00 40  returns 0x01 (0001ms, 1450ms total)
T2904 018:382 JLINK_ReadMemU32(0xE0001058, 0x0001 Items, ...) -- CPU_ReadMem(4 bytes @ 0xE0001058) -- Data:  01 00 00 40  returns 0x01 (0001ms, 1451ms total)
T2904 018:384 JLINK_ReadReg(R0)  returns 0x00000003 (0000ms, 1452ms total)
T2904 018:384 JLINK_ReadReg(R1)  returns 0x00FFFF3F (0000ms, 1452ms total)
T2904 018:384 JLINK_ReadReg(R2)  returns 0x40011400 (0000ms, 1452ms total)
T2904 018:384 JLINK_ReadReg(R3)  returns 0x00000080 (0000ms, 1452ms total)
T2904 018:384 JLINK_ReadReg(R4)  returns 0xA5A5A5A5 (0000ms, 1452ms total)
T2904 018:384 JLINK_ReadReg(R5)  returns 0xA5A5A5A5 (0000ms, 1452ms total)
T2904 018:384 JLINK_ReadReg(R6)  returns 0xA5A5A5A5 (0001ms, 1452ms total)
T2904 018:385 JLINK_ReadReg(R7)  returns 0xA5A5A5A5 (0000ms, 1453ms total)
T2904 018:385 JLINK_ReadReg(R8)  returns 0xA5A5A5A5 (0000ms, 1453ms total)
T2904 018:385 JLINK_ReadReg(R9)  returns 0xA5A5A5A5 (0000ms, 1453ms total)
T2904 018:385 JLINK_ReadReg(R10)  returns 0xA5A5A5A5 (0000ms, 1453ms total)
T2904 018:385 JLINK_ReadReg(R11)  returns 0xA5A5A5A5 (0000ms, 1453ms total)
T2904 018:385 JLINK_ReadReg(R12)  returns 0xA5A5A5A5 (0001ms, 1453ms total)
T2904 018:386 JLINK_ReadReg(R13)  returns 0x20005618 (0000ms, 1454ms total)
T2904 018:386 JLINK_ReadReg(R14)  returns 0x08005255 (0000ms, 1454ms total)
T2904 018:386 JLINK_ReadReg(R15)  returns 0x08005254 (0000ms, 1454ms total)
T2904 018:386 JLINK_ReadReg(XPSR)  returns 0x01000000 (0000ms, 1454ms total)
T2904 018:386 JLINK_ReadReg(MSP)  returns 0x20008AE0 (0000ms, 1454ms total)
T2904 018:386 JLINK_ReadReg(PSP)  returns 0x20005618 (0000ms, 1454ms total)
T2904 018:386 JLINK_ReadReg(CFBP)  returns 0x02000000 (0001ms, 1454ms total)
T2904 018:387 JLINK_ReadReg(FPSCR)  returns 0x00000000 (0007ms, 1455ms total)
T2904 018:394 JLINK_ReadReg(FPS0)  returns 0x00000000 (0000ms, 1462ms total)
T2904 018:394 JLINK_ReadReg(FPS1)  returns 0x00000000 (0000ms, 1462ms total)
T2904 018:394 JLINK_ReadReg(FPS2)  returns 0x00000000 (0000ms, 1462ms total)
T2904 018:394 JLINK_ReadReg(FPS3)  returns 0x00000000 (0000ms, 1462ms total)
T2904 018:394 JLINK_ReadReg(FPS4)  returns 0x00000000 (0000ms, 1462ms total)
T2904 018:394 JLINK_ReadReg(FPS5)  returns 0x00000000 (0000ms, 1462ms total)
T2904 018:394 JLINK_ReadReg(FPS6)  returns 0x00000000 (0000ms, 1462ms total)
T2904 018:394 JLINK_ReadReg(FPS7)  returns 0x00000000 (0001ms, 1462ms total)
T2904 018:395 JLINK_ReadReg(FPS8)  returns 0x00000000 (0000ms, 1463ms total)
T2904 018:395 JLINK_ReadReg(FPS9)  returns 0x00000000 (0000ms, 1463ms total)
T2904 018:395 JLINK_ReadReg(FPS10)  returns 0x00000000 (0000ms, 1463ms total)
T2904 018:395 JLINK_ReadReg(FPS11)  returns 0x00000000 (0000ms, 1463ms total)
T2904 018:395 JLINK_ReadReg(FPS12)  returns 0x00000000 (0000ms, 1463ms total)
T2904 018:395 JLINK_ReadReg(FPS13)  returns 0x00000000 (0000ms, 1463ms total)
T2904 018:395 JLINK_ReadReg(FPS14)  returns 0x00000000 (0000ms, 1463ms total)
T2904 018:395 JLINK_ReadReg(FPS15)  returns 0x00000000 (0001ms, 1463ms total)
T2904 018:396 JLINK_ReadReg(FPS16)  returns 0x00000000 (0000ms, 1464ms total)
T2904 018:396 JLINK_ReadReg(FPS17)  returns 0x00000000 (0000ms, 1464ms total)
T2904 018:396 JLINK_ReadReg(FPS18)  returns 0x00000000 (0000ms, 1464ms total)
T2904 018:396 JLINK_ReadReg(FPS19)  returns 0x00000000 (0000ms, 1464ms total)
T2904 018:396 JLINK_ReadReg(FPS20)  returns 0x00000000 (0000ms, 1464ms total)
T2904 018:396 JLINK_ReadReg(FPS31)  returns 0x00000000 (0000ms, 1464ms total)
T2904 018:396 JLINK_ReadReg(FPS7)  returns 0x00000000 (0001ms, 1464ms total)
T2904 018:397 JLINK_ReadReg(FPS8)  returns 0x00000000 (0000ms, 1465ms total)
T2904 018:397 JLINK_ReadReg(FPS9)  returns 0x00000000 (0000ms, 1465ms total)
T2904 018:397 JLINK_ReadReg(FPS10)  returns 0x00000000 (0000ms, 1465ms total)
T2904 018:397 JLINK_ReadReg(FPS11)  returns 0x00000000 (0000ms, 1465ms total)
T2904 018:397 JLINK_ReadReg(FPS12)  returns 0x00000000 (0000ms, 1465ms total)
T2904 018:397 JLINK_ReadReg(FPS13)  returns 0x00000000 (0001ms, 1465ms total)
T2904 018:398 JLINK_ReadReg(FPS14)  returns 0x00000000 (0000ms, 1466ms total)
T2904 018:398 JLINK_ReadReg(FPS15)  returns 0x00000000 (0000ms, 1466ms total)
T2904 018:398 JLINK_ReadReg(FPS16)  returns 0x00000000 (0000ms, 1466ms total)
T1048 018:400 JLINK_ReadMem (0x00000000, 0x0004 Bytes, ...) -- CPU_ReadMem(4 bytes @ 0x00000000) -- Data:  00 8B 00 20  returns 0x00 (0001ms, 1466ms total)
T1048 018:401 JLINK_ReadMemU32(0xE0001004, 0x0001 Items, ...) -- CPU_ReadMem(4 bytes @ 0xE0001004) -- Data:  01 00 00 40  returns 0x01 (0001ms, 1467ms total)
T2904 019:098 JLINK_Step() -- CPU_ReadMem(64 bytes @ 0x08005240) -- Updating DA cache (64 bytes @ 0x08005240) -- Read from DA cache (2 bytes @ 0x08005254) -- Not simulated -- CPU_WriteMem(4 bytes @ 0xE0002008) -- CPU_WriteMem(4 bytes @ 0xE000200C) -- CPU_WriteMem(4 bytes @ 0xE0002010) -- CPU_WriteMem(4 bytes @ 0xE0002014) -- CPU_WriteMem(4 bytes @ 0xE0002018) -- CPU_WriteMem(4 bytes @ 0xE000201C)  returns 0x00 (0015ms, 1469ms total)
T2904 019:113 JLINK_ReadReg(R15)  returns 0x08005256 (0000ms, 1484ms total)
T2904 019:114 JLINK_ReadReg(XPSR)  returns 0x01000000 (0000ms, 1485ms total)
T2904 019:114 JLINK_SetBPEx(Addr = 0x08005254, Type = 0xFFFFFFF2)  returns 0x00000005 (0000ms, 1485ms total)
T2904 019:114 JLINK_Go() -- CPU_WriteMem(4 bytes @ 0xE0002008) -- CPU_WriteMem(4 bytes @ 0xE000200C) -- CPU_WriteMem(4 bytes @ 0xE0002010) -- CPU_WriteMem(4 bytes @ 0xE0002014) -- CPU_WriteMem(4 bytes @ 0xE0002018) -- CPU_WriteMem(4 bytes @ 0xE000201C) (0011ms, 1485ms total)
T2904 019:226 JLINK_IsHalted()  returns FALSE (0001ms, 1496ms total)
T2904 019:328 JLINK_IsHalted()  returns FALSE (0001ms, 1496ms total)
T2904 019:430 JLINK_IsHalted()  returns FALSE (0002ms, 1496ms total)
T2904 019:533 JLINK_IsHalted()  returns FALSE (0001ms, 1496ms total)
T2904 019:635 JLINK_ReadMemU32(0xE0001004, 0x0001 Items, ...) -- CPU is running -- CPU_ReadMem(4 bytes @ 0xE0001004) -- Data:  01 00 00 40  returns 0x01 (0001ms, 1496ms total)
T2904 019:636 JLINK_IsHalted()  returns FALSE (0002ms, 1497ms total)
T2904 019:739 JLINK_IsHalted()  returns FALSE (0001ms, 1497ms total)
T2904 019:841 JLINK_IsHalted()  returns FALSE (0001ms, 1497ms total)
T2904 019:944 JLINK_IsHalted()  returns FALSE (0001ms, 1497ms total)
T2904 020:046 JLINK_IsHalted()  returns FALSE (0001ms, 1497ms total)
T2904 020:148 JLINK_ReadMemU32(0xE0001004, 0x0001 Items, ...) -- CPU is running -- CPU_ReadMem(4 bytes @ 0xE0001004) -- Data:  01 00 00 40  returns 0x01 (0001ms, 1497ms total)
T2904 020:149 JLINK_IsHalted()  returns FALSE (0001ms, 1498ms total)
T2904 020:251 JLINK_IsHalted()  returns FALSE (0001ms, 1498ms total)
T2904 020:353 JLINK_IsHalted()  returns FALSE (0001ms, 1498ms total)
T2904 020:455 JLINK_IsHalted()  returns FALSE (0001ms, 1498ms total)
T2904 020:557 JLINK_IsHalted()  returns FALSE (0001ms, 1498ms total)
T2904 020:659 JLINK_IsHalted()  returns FALSE (0001ms, 1498ms total)
T2904 020:761 JLINK_ReadMemU32(0xE0001004, 0x0001 Items, ...) -- CPU is running -- CPU_ReadMem(4 bytes @ 0xE0001004) -- Data:  01 00 00 40  returns 0x01 (0001ms, 1498ms total)
T2904 020:762 JLINK_IsHalted()  returns FALSE (0001ms, 1499ms total)
T2904 020:864 JLINK_IsHalted()  returns FALSE (0001ms, 1499ms total)
T2904 020:967 JLINK_IsHalted()  returns FALSE (0001ms, 1499ms total)
T2904 021:069 JLINK_IsHalted()  returns FALSE (0001ms, 1499ms total)
T2904 021:171 JLINK_IsHalted()  returns TRUE (0005ms, 1499ms total)
T2904 021:176 JLINK_Halt()  returns 0x00 (0000ms, 1499ms total)
T2904 021:176 JLINK_IsHalted()  returns TRUE (0000ms, 1499ms total)
T2904 021:176 JLINK_IsHalted()  returns TRUE (0000ms, 1499ms total)
T2904 021:176 JLINK_IsHalted()  returns TRUE (0000ms, 1499ms total)
T2904 021:176 JLINK_ReadReg(R15)  returns 0x08005254 (0000ms, 1499ms total)
T2904 021:176 JLINK_ReadReg(XPSR)  returns 0x01000000 (0001ms, 1499ms total)
T2904 021:177 JLINK_ClrBPEx(BPHandle = 0x00000005)  returns 0x00 (0000ms, 1500ms total)
T2904 021:177 JLINK_ReadMemU32(0xE000ED30, 0x0001 Items, ...) -- CPU_ReadMem(4 bytes @ 0xE000ED30) -- Data:  03 00 00 00  returns 0x01 (0001ms, 1500ms total)
T2904 021:178 JLINK_ReadMemU32(0xE0001028, 0x0001 Items, ...) -- CPU_ReadMem(4 bytes @ 0xE0001028) -- Data:  01 00 00 40  returns 0x01 (0001ms, 1501ms total)
T2904 021:179 JLINK_ReadMemU32(0xE0001038, 0x0001 Items, ...) -- CPU_ReadMem(4 bytes @ 0xE0001038) -- Data:  01 00 00 40  returns 0x01 (0001ms, 1502ms total)
T2904 021:180 JLINK_ReadMemU32(0xE0001048, 0x0001 Items, ...) -- CPU_ReadMem(4 bytes @ 0xE0001048) -- Data:  01 00 00 40  returns 0x01 (0001ms, 1503ms total)
T2904 021:181 JLINK_ReadMemU32(0xE0001058, 0x0001 Items, ...) -- CPU_ReadMem(4 bytes @ 0xE0001058) -- Data:  01 00 00 40  returns 0x01 (0002ms, 1504ms total)
T2904 021:183 JLINK_ReadReg(R0)  returns 0x00000003 (0000ms, 1506ms total)
T2904 021:183 JLINK_ReadReg(R1)  returns 0x00FFFF3F (0000ms, 1506ms total)
T2904 021:183 JLINK_ReadReg(R2)  returns 0x40011400 (0000ms, 1506ms total)
T2904 021:183 JLINK_ReadReg(R3)  returns 0x00000080 (0000ms, 1506ms total)
T2904 021:183 JLINK_ReadReg(R4)  returns 0xA5A5A5A5 (0000ms, 1506ms total)
T2904 021:183 JLINK_ReadReg(R5)  returns 0xA5A5A5A5 (0000ms, 1506ms total)
T2904 021:183 JLINK_ReadReg(R6)  returns 0xA5A5A5A5 (0000ms, 1506ms total)
T2904 021:183 JLINK_ReadReg(R7)  returns 0xA5A5A5A5 (0001ms, 1506ms total)
T2904 021:184 JLINK_ReadReg(R8)  returns 0xA5A5A5A5 (0000ms, 1507ms total)
T2904 021:184 JLINK_ReadReg(R9)  returns 0xA5A5A5A5 (0000ms, 1507ms total)
T2904 021:184 JLINK_ReadReg(R10)  returns 0xA5A5A5A5 (0000ms, 1507ms total)
T2904 021:184 JLINK_ReadReg(R11)  returns 0xA5A5A5A5 (0000ms, 1507ms total)
T2904 021:184 JLINK_ReadReg(R12)  returns 0xA5A5A5A5 (0000ms, 1507ms total)
T2904 021:184 JLINK_ReadReg(R13)  returns 0x20005618 (0000ms, 1507ms total)
T2904 021:184 JLINK_ReadReg(R14)  returns 0x08005255 (0000ms, 1507ms total)
T2904 021:184 JLINK_ReadReg(R15)  returns 0x08005254 (0000ms, 1507ms total)
T2904 021:184 JLINK_ReadReg(XPSR)  returns 0x01000000 (0000ms, 1507ms total)
